
T1A10 000:387 SEGGER J-Link V4.98e Log File (0001ms, 0356ms total)
T1A10 000:387 DLL Compiled: May  5 2015 11:00:52 (0001ms, 0356ms total)
T1A10 000:387 Logging started @ 2016-03-05 00:45 (0001ms, 0356ms total)
T1A10 000:388 JLINK_SetWarnOutHandler(...) (0001ms, 0357ms total)
T1A10 000:389 JLINK_OpenEx(...)
Firmware: J-Link V9 compiled Apr 21 2015 18:10:40
Hardware: V9.10
S/N: 59106098
Feature(s): GDB, RDI, FlashDL, FlashBP, JFlash  returns O.K. (0328ms, 0685ms total)
T1A10 000:717 JLINK_SetErrorOutHandler(...) (0000ms, 0685ms total)
T1A10 000:717 JLINK_ExecCommand("ProjectFile = "F:\air_clean\aclean_ct\code\bsp\stm32f10x\JLinkSettings.ini"", ...)  returns 0x00 (0003ms, 0688ms total)
T1A10 000:726 JLINK_ExecCommand("Device = STM32F103RC", ...)Device "STM32F103RC" selected.  returns 0x00 (0018ms, 0706ms total)
T1A10 000:744 JLINK_ExecCommand("DisableConnectionTimeout", ...)  returns 0x01 (0000ms, 0706ms total)
T1A10 000:744 JLINK_GetHardwareVersion()  returns 0x16378 (0000ms, 0706ms total)
T1A10 000:744 JLINK_GetDLLVersion()  returns 49805 (0000ms, 0706ms total)
T1A10 000:744 JLINK_GetFirmwareString(...) (0000ms, 0706ms total)
T1A10 000:759 JLINK_GetDLLVersion()  returns 49805 (0000ms, 0706ms total)
T1A10 000:759 JLINK_GetCompileDateTime() (0000ms, 0706ms total)
T1A10 000:764 JLINK_GetFirmwareString(...) (0000ms, 0706ms total)
T1A10 000:769 JLINK_GetHardwareVersion()  returns 0x16378 (0000ms, 0706ms total)
T1A10 000:787 JLINK_TIF_Select(JLINKARM_TIF_SWD)  returns 0x00 (0015ms, 0721ms total)
T1A10 000:802 JLINK_SetSpeed(50000) (0002ms, 0723ms total)
T1A10 000:804 JLINK_GetId() >0x108 TIF>Found SWD-DP with ID 0x1BA01477 >0x0D TIF> >0x28 TIF> >0x0D TIF> >0x28 TIF> >0x0D TIF> >0x21 TIF> >0x0D TIF> >0x28 TIF> >0x0D TIF> >0x28 TIF> >0x0D TIF> >0x28 TIF> >0x0D TIF> >0x21 TIF> >0x0D TIF> >0x21 TIF> >0x0D TIF> >0x28 TIF> >0x0D TIF> >0x21 TIF> >0x0D TIF> >0x21 TIF> >0x0D TIF> >0x28 TIF> >0x0D TIF> >0x28 TIF> >0x108 TIF>Found SWD-DP with ID 0x1BA01477 >0x0D TIF> >0x21 TIF> >0x0D TIF> >0x28 TIF> >0x0D TIF> >0x28 TIF> >0x0D TIF> >0x21 TIF> >0x0D TIF> >0x28 TIF>
 >0x0D TIF> >0x21 TIF> >0x0D TIF> >0x21 TIF> >0x0D TIF> >0x21 TIF> >0x0D TIF> >0x21 TIF> >0x0D TIF> >0x28 TIF> >0x0D TIF> >0x28 TIF> >0x0D TIF> >0x21 TIF> >0x0D TIF> >0x28 TIF> >0x0D TIF> >0x28 TIF> >0x0D TIF> >0x28 TIF> >0x0D TIF> >0x21 TIF> >0x0D TIF> >0x21 TIF> >0x0D TIF> >0x28 TIF> >0x0D TIF> >0x21 TIF> >0x0D TIF> >0x21 TIF>Found Cortex-M3 r1p1, Little endian. -- CPU_WriteMem(4 bytes @ 0xE0002000) -- CPU_ReadMem(4 bytes @ 0xE000EDF0) -- CPU_WriteMem(4 bytes @ 0xE000EDF0)
 -- CPU_ReadMem(4 bytes @ 0xE0002000)FPUnit: 6 code (BP) slots and 2 literal slots -- CPU_ReadMem(4 bytes @ 0xE000EDFC) -- CPU_WriteMem(4 bytes @ 0xE000EDFC) -- CPU_ReadMem(4 bytes @ 0xE0001000) -- CPU_WriteMem(4 bytes @ 0xE0001000) -- CPU_ReadMem(4 bytes @ 0xE000ED88) -- CPU_WriteMem(4 bytes @ 0xE000ED88) -- CPU_ReadMem(4 bytes @ 0xE000ED88) -- CPU_WriteMem(4 bytes @ 0xE000ED88)CoreSight components:ROMTbl 0 @ E00FF000 -- CPU_ReadMem(16 bytes @ 0xE00FF000) -- CPU_ReadMem(16 bytes @ 0xE000EFF0)
 -- CPU_ReadMem(16 bytes @ 0xE000EFE0)ROMTbl 0 [0]: FFF0F000, CID: B105E00D, PID: 001BB000 SCS -- CPU_ReadMem(16 bytes @ 0xE0001FF0) -- CPU_ReadMem(16 bytes @ 0xE0001FE0)ROMTbl 0 [1]: FFF02000, CID: B105E00D, PID: 001BB002 DWT -- CPU_ReadMem(16 bytes @ 0xE0002FF0) -- CPU_ReadMem(16 bytes @ 0xE0002FE0)ROMTbl 0 [2]: FFF03000, CID: B105E00D, PID: 000BB003 FPB -- CPU_ReadMem(16 bytes @ 0xE0000FF0) -- CPU_ReadMem(16 bytes @ 0xE0000FE0)ROMTbl 0 [3]: FFF01000, CID: B105E00D, PID: 001BB001 ITM
 -- CPU_ReadMem(16 bytes @ 0xE00FF010) -- CPU_ReadMem(16 bytes @ 0xE0040FF0) -- CPU_ReadMem(16 bytes @ 0xE0040FE0)ROMTbl 0 [4]: FFF41000, CID: B105900D, PID: 001BB923 TPIU-Lite -- CPU_ReadMem(16 bytes @ 0xE0041FF0) -- CPU_ReadMem(16 bytes @ 0xE0041FE0)ROMTbl 0 [5]: FFF42000, CID: B105900D, PID: 101BB924 ETM-M3 >0x0D TIF> >0x21 TIF>  returns 0x1BA01477 (0512ms, 1235ms total)
T1A10 001:316 JLINK_GetDLLVersion()  returns 49805 (0000ms, 1235ms total)
T1A10 001:316 JLINK_CORE_GetFound()  returns 0x30000FF (0005ms, 1240ms total)
T1A10 001:321 JLINK_GetDebugInfo(0x100) -- Value=0xE00FF003  returns 0x00 (0000ms, 1240ms total)
T1A10 001:325 JLINK_ReadMem (0xE00FF000, 0x0020 Bytes, ...) -- CPU is running -- CPU_ReadMem(32 bytes @ 0xE00FF000) - Data: 03 F0 F0 FF 03 20 F0 FF 03 30 F0 FF 03 10 F0 FF ...  returns 0x00 (0005ms, 1245ms total)
T1A10 001:330 JLINK_ReadMem (0xE000EFF0, 0x0010 Bytes, ...) -- CPU is running -- CPU_ReadMem(16 bytes @ 0xE000EFF0) - Data: 0D 00 00 00 E0 00 00 00 05 00 00 00 B1 00 00 00  returns 0x00 (0005ms, 1250ms total)
T1A10 001:335 JLINK_ReadMem (0xE000EFD0, 0x0020 Bytes, ...) -- CPU is running -- CPU_ReadMem(32 bytes @ 0xE000EFD0) - Data: 04 00 00 00 00 00 00 00 00 00 00 00 00 00 00 00 ...  returns 0x00 (0005ms, 1255ms total)
T1A10 001:340 JLINK_ReadMem (0xE0001FF0, 0x0010 Bytes, ...) -- CPU is running -- CPU_ReadMem(16 bytes @ 0xE0001FF0) - Data: 0D 00 00 00 E0 00 00 00 05 00 00 00 B1 00 00 00  returns 0x00 (0005ms, 1260ms total)
T1A10 001:345 JLINK_ReadMem (0xE0001FD0, 0x0020 Bytes, ...) -- CPU is running -- CPU_ReadMem(32 bytes @ 0xE0001FD0) - Data: 04 00 00 00 00 00 00 00 00 00 00 00 00 00 00 00 ...  returns 0x00 (0005ms, 1265ms total)
T1A10 001:350 JLINK_ReadMem (0xE0002FF0, 0x0010 Bytes, ...) -- CPU is running -- CPU_ReadMem(16 bytes @ 0xE0002FF0) - Data: 0D 00 00 00 E0 00 00 00 05 00 00 00 B1 00 00 00  returns 0x00 (0006ms, 1271ms total)
T1A10 001:356 JLINK_ReadMem (0xE0002FD0, 0x0020 Bytes, ...) -- CPU is running -- CPU_ReadMem(32 bytes @ 0xE0002FD0) - Data: 04 00 00 00 00 00 00 00 00 00 00 00 00 00 00 00 ...  returns 0x00 (0005ms, 1276ms total)
T1A10 001:361 JLINK_ReadMem (0xE0000FF0, 0x0010 Bytes, ...) -- CPU is running -- CPU_ReadMem(16 bytes @ 0xE0000FF0) - Data: 0D 00 00 00 E0 00 00 00 05 00 00 00 B1 00 00 00  returns 0x00 (0005ms, 1281ms total)
T1A10 001:366 JLINK_ReadMem (0xE0000FD0, 0x0020 Bytes, ...) -- CPU is running -- CPU_ReadMem(32 bytes @ 0xE0000FD0) - Data: 04 00 00 00 00 00 00 00 00 00 00 00 00 00 00 00 ...  returns 0x00 (0005ms, 1286ms total)
T1A10 001:371 JLINK_ReadMem (0xE0040FF0, 0x0010 Bytes, ...) -- CPU is running -- CPU_ReadMem(16 bytes @ 0xE0040FF0) - Data: 0D 00 00 00 90 00 00 00 05 00 00 00 B1 00 00 00  returns 0x00 (0005ms, 1291ms total)
T1A10 001:376 JLINK_ReadMem (0xE0040FD0, 0x0020 Bytes, ...) -- CPU is running -- CPU_ReadMem(32 bytes @ 0xE0040FD0) - Data: 04 00 00 00 00 00 00 00 00 00 00 00 00 00 00 00 ...  returns 0x00 (0005ms, 1296ms total)
T1A10 001:381 JLINK_ReadMem (0xE0041FF0, 0x0010 Bytes, ...) -- CPU is running -- CPU_ReadMem(16 bytes @ 0xE0041FF0) - Data: 0D 00 00 00 90 00 00 00 05 00 00 00 B1 00 00 00  returns 0x00 (0005ms, 1301ms total)
T1A10 001:386 JLINK_ReadMem (0xE0041FD0, 0x0020 Bytes, ...) -- CPU is running -- CPU_ReadMem(32 bytes @ 0xE0041FD0) - Data: 04 00 00 00 00 00 00 00 00 00 00 00 00 00 00 00 ...  returns 0x00 (0005ms, 1306ms total)
T1A10 001:391 JLINK_ReadMemU32(0xE000ED00, 0x0001 Items, ...) -- CPU is running -- CPU_ReadMem(4 bytes @ 0xE000ED00) - Data: 31 C2 1F 41  returns 0x01 (0005ms, 1311ms total)
T1A10 001:396 JLINK_SetResetType(JLINKARM_RESET_TYPE_NORMAL)  returns JLINKARM_RESET_TYPE_NORMAL (0000ms, 1311ms total)
T1A10 001:396 JLINK_Reset() -- CPU is running -- CPU_WriteMem(4 bytes @ 0xE000EDF0) -- CPU is running -- CPU_WriteMem(4 bytes @ 0xE000EDFC) >0x35 TIF> -- CPU is running -- CPU_WriteMem(4 bytes @ 0xE000ED0C) -- CPU is running -- CPU_ReadMem(4 bytes @ 0xE000EDF0) -- CPU is running -- CPU_ReadMem(4 bytes @ 0xE000EDF0) -- CPU is running -- CPU_WriteMem(4 bytes @ 0xE000EDF0) -- CPU is running -- CPU_WriteMem(4 bytes @ 0xE000EDFC) -- CPU is running -- CPU_ReadMem(4 bytes @ 0xE000EDF0)
 -- CPU_WriteMem(4 bytes @ 0xE0002000) -- CPU_ReadMem(4 bytes @ 0xE000EDFC) -- CPU_ReadMem(4 bytes @ 0xE0001000) (0074ms, 1385ms total)
T1A10 001:470 JLINK_Halt()  returns 0x00 (0000ms, 1385ms total)
T1A10 001:470 JLINK_IsHalted()  returns TRUE (0000ms, 1385ms total)
T1A10 001:470 JLINK_ReadMemU32(0xE000EDF0, 0x0001 Items, ...) -- CPU_ReadMem(4 bytes @ 0xE000EDF0) - Data: 03 00 03 00  returns 0x01 (0005ms, 1390ms total)
T1A10 001:475 JLINK_WriteU32(0xE000EDF0, 0xA05F0003) -- CPU_WriteMem(4 bytes @ 0xE000EDF0)  returns 0x00 (0005ms, 1395ms total)
T1A10 001:480 JLINK_WriteU32(0xE000EDFC, 0x01000000) -- CPU_WriteMem(4 bytes @ 0xE000EDFC)  returns 0x00 (0005ms, 1400ms total)
T1A10 001:502 JLINK_GetHWStatus(...)  returns 0x00 (0004ms, 1404ms total)
T1A10 001:532 JLINK_GetNumBPUnits(Type = 0xFFFFFF00)  returns 0x06 (0000ms, 1404ms total)
T1A10 001:532 JLINK_GetNumBPUnits(Type = 0xF0)  returns 0x2000 (0000ms, 1404ms total)
T1A10 001:532 JLINK_GetNumWPUnits()  returns 0x04 (0000ms, 1404ms total)
T1A10 001:543 JLINK_GetSpeed()  returns 0x2EE0 (0000ms, 1404ms total)
T1A10 001:548 JLINK_ReadMemU32(0xE000E004, 0x0001 Items, ...) -- CPU_ReadMem(4 bytes @ 0xE000E004) - Data: 01 00 00 00  returns 0x01 (0005ms, 1409ms total)
T1A10 001:553 JLINK_ReadMemU32(0xE000E004, 0x0001 Items, ...) -- CPU_ReadMem(4 bytes @ 0xE000E004) - Data: 01 00 00 00  returns 0x01 (0005ms, 1414ms total)
T1A10 001:558 JLINK_WriteMem(0xE0001000, 0x001C Bytes, ...) - Data: 01 00 00 00 00 00 00 00 00 00 00 00 00 00 00 00 ... -- CPU_WriteMem(28 bytes @ 0xE0001000)  returns 0x1C (0006ms, 1420ms total)
T1A10 001:564 JLINK_ReadMem (0xE0001000, 0x001C Bytes, ...) -- CPU_ReadMem(28 bytes @ 0xE0001000) - Data: 01 00 00 40 00 00 00 00 00 00 00 00 00 00 00 00 ...  returns 0x00 (0005ms, 1425ms total)
T1A10 001:569 JLINK_Halt()  returns 0x00 (0000ms, 1425ms total)
T1A10 001:569 JLINK_IsHalted()  returns TRUE (0000ms, 1425ms total)
T1A10 001:571 JLINK_WriteMem(0x20000000, 0x0164 Bytes, ...) - Data: 00 BE 0A E0 0D 78 2D 06 68 40 08 24 40 00 00 D3 ... -- CPU_WriteMem(356 bytes @ 0x20000000)  returns 0x164 (0006ms, 1431ms total)
T1A10 001:577 JLINK_WriteReg(R0, 0x08000000)  returns 0x00 (0000ms, 1431ms total)
T1A10 001:577 JLINK_WriteReg(R1, 0x007A1200)  returns 0x00 (0000ms, 1431ms total)
T1A10 001:577 JLINK_WriteReg(R2, 0x00000001)  returns 0x00 (0000ms, 1431ms total)
T1A10 001:577 JLINK_WriteReg(R3, 0x00000000)  returns 0x00 (0000ms, 1431ms total)
T1A10 001:577 JLINK_WriteReg(R4, 0x00000000)  returns 0x00 (0000ms, 1431ms total)
T1A10 001:577 JLINK_WriteReg(R5, 0x00000000)  returns 0x00 (0000ms, 1431ms total)
T1A10 001:577 JLINK_WriteReg(R6, 0x00000000)  returns 0x00 (0000ms, 1431ms total)
T1A10 001:577 JLINK_WriteReg(R7, 0x00000000)  returns 0x00 (0000ms, 1431ms total)
T1A10 001:577 JLINK_WriteReg(R8, 0x00000000)  returns 0x00 (0000ms, 1431ms total)
T1A10 001:577 JLINK_WriteReg(R9, 0x20000160)  returns 0x00 (0000ms, 1431ms total)
T1A10 001:577 JLINK_WriteReg(R10, 0x00000000)  returns 0x00 (0000ms, 1431ms total)
T1A10 001:578 JLINK_WriteReg(R11, 0x00000000)  returns 0x00 (0000ms, 1432ms total)
T1A10 001:578 JLINK_WriteReg(R12, 0x00000000)  returns 0x00 (0000ms, 1432ms total)
T1A10 001:578 JLINK_WriteReg(R13 (SP), 0x20001000)  returns 0x00 (0000ms, 1432ms total)
T1A10 001:578 JLINK_WriteReg(R14, 0x20000001)  returns 0x00 (0000ms, 1432ms total)
T1A10 001:578 JLINK_WriteReg(R15 (PC), 0x20000038)  returns 0x00 (0000ms, 1432ms total)
T1A10 001:578 JLINK_WriteReg(XPSR, 0x01000000)  returns 0x00 (0000ms, 1432ms total)
T1A10 001:578 JLINK_WriteReg(MSP, 0x20001000)  returns 0x00 (0000ms, 1432ms total)
T1A10 001:578 JLINK_WriteReg(PSP, 0x20001000)  returns 0x00 (0000ms, 1432ms total)
T1A10 001:578 JLINK_WriteReg(CFBP, 0x00000000)  returns 0x00 (0000ms, 1432ms total)
T1A10 001:578 JLINK_SetBPEx(Addr = 0x20000000, Type = 0xFFFFFFF2) -- CPU_ReadMem(2 bytes @ 0x20000000)  returns 0x00000001 (0005ms, 1437ms total)
T1A10 001:583 JLINK_Go() -- CPU_WriteMem(2 bytes @ 0x20000000) -- CPU_ReadMem(4 bytes @ 0xE0001000) -- CPU_WriteMem(4 bytes @ 0xE0002008) -- CPU_WriteMem(4 bytes @ 0xE000200C) -- CPU_WriteMem(4 bytes @ 0xE0002010) -- CPU_WriteMem(4 bytes @ 0xE0002014) -- CPU_WriteMem(4 bytes @ 0xE0002018) -- CPU_WriteMem(4 bytes @ 0xE000201C) -- CPU_WriteMem(4 bytes @ 0xE0001004) (0031ms, 1468ms total)
T1A10 001:614 JLINK_IsHalted() -- CPU_ReadMem(2 bytes @ 0x20000000)  returns TRUE (0014ms, 1482ms total)
T1A10 001:628 JLINK_ReadReg(R15 (PC))  returns 0x20000000 (0000ms, 1468ms total)
T1A10 001:628 JLINK_ClrBPEx(BPHandle = 0x00000001)  returns 0x00 (0000ms, 1468ms total)
T1A10 001:628 JLINK_ReadReg(R0)  returns 0x00000000 (0000ms, 1468ms total)
T1A10 001:628 JLINK_WriteReg(R0, 0x08000000)  returns 0x00 (0000ms, 1468ms total)
T1A10 001:628 JLINK_WriteReg(R1, 0x007A1200)  returns 0x00 (0000ms, 1468ms total)
T1A10 001:628 JLINK_WriteReg(R2, 0x00000001)  returns 0x00 (0000ms, 1468ms total)
T1A10 001:628 JLINK_WriteReg(R3, 0x00000000)  returns 0x00 (0000ms, 1468ms total)
T1A10 001:628 JLINK_WriteReg(R4, 0x00000000)  returns 0x00 (0000ms, 1468ms total)
T1A10 001:628 JLINK_WriteReg(R5, 0x00000000)  returns 0x00 (0000ms, 1468ms total)
T1A10 001:628 JLINK_WriteReg(R6, 0x00000000)  returns 0x00 (0000ms, 1468ms total)
T1A10 001:628 JLINK_WriteReg(R7, 0x00000000)  returns 0x00 (0000ms, 1468ms total)
T1A10 001:628 JLINK_WriteReg(R8, 0x00000000)  returns 0x00 (0000ms, 1468ms total)
T1A10 001:628 JLINK_WriteReg(R9, 0x20000160)  returns 0x00 (0001ms, 1469ms total)
T1A10 001:629 JLINK_WriteReg(R10, 0x00000000)  returns 0x00 (0000ms, 1469ms total)
T1A10 001:629 JLINK_WriteReg(R11, 0x00000000)  returns 0x00 (0000ms, 1469ms total)
T1A10 001:629 JLINK_WriteReg(R12, 0x00000000)  returns 0x00 (0000ms, 1469ms total)
T1A10 001:629 JLINK_WriteReg(R13 (SP), 0x20001000)  returns 0x00 (0000ms, 1469ms total)
T1A10 001:629 JLINK_WriteReg(R14, 0x20000001)  returns 0x00 (0000ms, 1469ms total)
T1A10 001:629 JLINK_WriteReg(R15 (PC), 0x2000007C)  returns 0x00 (0000ms, 1469ms total)
T1A10 001:629 JLINK_WriteReg(XPSR, 0x01000000)  returns 0x00 (0000ms, 1469ms total)
T1A10 001:629 JLINK_WriteReg(MSP, 0x20001000)  returns 0x00 (0000ms, 1469ms total)
T1A10 001:629 JLINK_WriteReg(PSP, 0x20001000)  returns 0x00 (0000ms, 1469ms total)
T1A10 001:629 JLINK_WriteReg(CFBP, 0x00000000)  returns 0x00 (0000ms, 1469ms total)
T1A10 001:629 JLINK_SetBPEx(Addr = 0x20000000, Type = 0xFFFFFFF2)  returns 0x00000002 (0000ms, 1469ms total)
T1A10 001:629 JLINK_Go() -- CPU_ReadMem(4 bytes @ 0xE0001000) (0015ms, 1484ms total)
T1A10 001:645 JLINK_IsHalted()  returns FALSE (0004ms, 1488ms total)
T1A10 001:785 JLINK_IsHalted() -- CPU_ReadMem(2 bytes @ 0x20000000)  returns TRUE (0015ms, 1499ms total)
T1A10 001:800 JLINK_ReadReg(R15 (PC))  returns 0x20000000 (0000ms, 1484ms total)
T1A10 001:800 JLINK_ClrBPEx(BPHandle = 0x00000002)  returns 0x00 (0000ms, 1484ms total)
T1A10 001:800 JLINK_ReadReg(R0)  returns 0x00000000 (0000ms, 1484ms total)
T1A10 001:851 JLINK_WriteReg(R0, 0x00000001)  returns 0x00 (0000ms, 1484ms total)
T1A10 001:851 JLINK_WriteReg(R1, 0x007A1200)  returns 0x00 (0000ms, 1484ms total)
T1A10 001:851 JLINK_WriteReg(R2, 0x00000001)  returns 0x00 (0001ms, 1485ms total)
T1A10 001:852 JLINK_WriteReg(R3, 0x00000000)  returns 0x00 (0000ms, 1485ms total)
T1A10 001:852 JLINK_WriteReg(R4, 0x00000000)  returns 0x00 (0000ms, 1485ms total)
T1A10 001:852 JLINK_WriteReg(R5, 0x00000000)  returns 0x00 (0000ms, 1485ms total)
T1A10 001:852 JLINK_WriteReg(R6, 0x00000000)  returns 0x00 (0000ms, 1485ms total)
T1A10 001:852 JLINK_WriteReg(R7, 0x00000000)  returns 0x00 (0000ms, 1485ms total)
T1A10 001:853 JLINK_WriteReg(R8, 0x00000000)  returns 0x00 (0000ms, 1486ms total)
T1A10 001:853 JLINK_WriteReg(R9, 0x20000160)  returns 0x00 (0000ms, 1486ms total)
T1A10 001:853 JLINK_WriteReg(R10, 0x00000000)  returns 0x00 (0000ms, 1486ms total)
T1A10 001:853 JLINK_WriteReg(R11, 0x00000000)  returns 0x00 (0000ms, 1486ms total)
T1A10 001:853 JLINK_WriteReg(R12, 0x00000000)  returns 0x00 (0000ms, 1486ms total)
T1A10 001:854 JLINK_WriteReg(R13 (SP), 0x20001000)  returns 0x00 (0000ms, 1486ms total)
T1A10 001:854 JLINK_WriteReg(R14, 0x20000001)  returns 0x00 (0000ms, 1486ms total)
T1A10 001:854 JLINK_WriteReg(R15 (PC), 0x2000006A)  returns 0x00 (0000ms, 1486ms total)
T1A10 001:854 JLINK_WriteReg(XPSR, 0x01000000)  returns 0x00 (0000ms, 1486ms total)
T1A10 001:854 JLINK_WriteReg(MSP, 0x20001000)  returns 0x00 (0000ms, 1486ms total)
T1A10 001:854 JLINK_WriteReg(PSP, 0x20001000)  returns 0x00 (0001ms, 1487ms total)
T1A10 001:855 JLINK_WriteReg(CFBP, 0x00000000)  returns 0x00 (0000ms, 1487ms total)
T1A10 001:855 JLINK_SetBPEx(Addr = 0x20000000, Type = 0xFFFFFFF2)  returns 0x00000003 (0000ms, 1487ms total)
T1A10 001:855 JLINK_Go() -- CPU_ReadMem(4 bytes @ 0xE0001000) (0015ms, 1502ms total)
T1A10 001:870 JLINK_IsHalted() -- CPU_ReadMem(2 bytes @ 0x20000000)  returns TRUE (0013ms, 1515ms total)
T1A10 001:883 JLINK_ReadReg(R15 (PC))  returns 0x20000000 (0000ms, 1502ms total)
T1A10 001:883 JLINK_ClrBPEx(BPHandle = 0x00000003)  returns 0x00 (0000ms, 1502ms total)
T1A10 001:883 JLINK_ReadReg(R0)  returns 0x00000000 (0000ms, 1502ms total)
T1A10 001:890 JLINK_WriteMem(0x20000000, 0x0164 Bytes, ...) - Data: 00 BE 0A E0 0D 78 2D 06 68 40 08 24 40 00 00 D3 ... -- CPU_WriteMem(356 bytes @ 0x20000000)  returns 0x164 (0005ms, 1507ms total)
T1A10 001:895 JLINK_WriteReg(R0, 0x08000000)  returns 0x00 (0000ms, 1507ms total)
T1A10 001:895 JLINK_WriteReg(R1, 0x007A1200)  returns 0x00 (0001ms, 1508ms total)
T1A10 001:896 JLINK_WriteReg(R2, 0x00000002)  returns 0x00 (0000ms, 1508ms total)
T1A10 001:896 JLINK_WriteReg(R3, 0x00000000)  returns 0x00 (0000ms, 1508ms total)
T1A10 001:896 JLINK_WriteReg(R4, 0x00000000)  returns 0x00 (0000ms, 1508ms total)
T1A10 001:896 JLINK_WriteReg(R5, 0x00000000)  returns 0x00 (0000ms, 1508ms total)
T1A10 001:896 JLINK_WriteReg(R6, 0x00000000)  returns 0x00 (0000ms, 1508ms total)
T1A10 001:896 JLINK_WriteReg(R7, 0x00000000)  returns 0x00 (0000ms, 1508ms total)
T1A10 001:896 JLINK_WriteReg(R8, 0x00000000)  returns 0x00 (0000ms, 1508ms total)
T1A10 001:896 JLINK_WriteReg(R9, 0x20000160)  returns 0x00 (0000ms, 1508ms total)
T1A10 001:896 JLINK_WriteReg(R10, 0x00000000)  returns 0x00 (0000ms, 1508ms total)
T1A10 001:896 JLINK_WriteReg(R11, 0x00000000)  returns 0x00 (0000ms, 1508ms total)
T1A10 001:896 JLINK_WriteReg(R12, 0x00000000)  returns 0x00 (0000ms, 1508ms total)
T1A10 001:896 JLINK_WriteReg(R13 (SP), 0x20001000)  returns 0x00 (0000ms, 1508ms total)
T1A10 001:896 JLINK_WriteReg(R14, 0x20000001)  returns 0x00 (0000ms, 1508ms total)
T1A10 001:896 JLINK_WriteReg(R15 (PC), 0x20000038)  returns 0x00 (0000ms, 1508ms total)
T1A10 001:896 JLINK_WriteReg(XPSR, 0x01000000)  returns 0x00 (0001ms, 1509ms total)
T1A10 001:897 JLINK_WriteReg(MSP, 0x20001000)  returns 0x00 (0000ms, 1509ms total)
T1A10 001:897 JLINK_WriteReg(PSP, 0x20001000)  returns 0x00 (0000ms, 1509ms total)
T1A10 001:897 JLINK_WriteReg(CFBP, 0x00000000)  returns 0x00 (0000ms, 1509ms total)
T1A10 001:897 JLINK_SetBPEx(Addr = 0x20000000, Type = 0xFFFFFFF2) -- CPU_ReadMem(2 bytes @ 0x20000000)  returns 0x00000004 (0004ms, 1513ms total)
T1A10 001:901 JLINK_Go() -- CPU_WriteMem(2 bytes @ 0x20000000) -- CPU_ReadMem(4 bytes @ 0xE0001000) (0018ms, 1531ms total)
T1A10 001:920 JLINK_IsHalted() -- CPU_ReadMem(2 bytes @ 0x20000000)  returns TRUE (0015ms, 1547ms total)
T1A10 001:935 JLINK_ReadReg(R15 (PC))  returns 0x20000000 (0000ms, 1532ms total)
T1A10 001:935 JLINK_ClrBPEx(BPHandle = 0x00000004)  returns 0x00 (0000ms, 1532ms total)
T1A10 001:935 JLINK_ReadReg(R0)  returns 0x00000000 (0000ms, 1532ms total)
T1A10 001:936 JLINK_WriteMem(0x20000164, 0x0400 Bytes, ...) - Data: C0 18 00 20 45 01 00 08 6D 0A 00 08 0F 02 00 08 ... -- CPU_WriteMem(1024 bytes @ 0x20000164)  returns 0x400 (0007ms, 1539ms total)
T1A10 001:943 JLINK_WriteReg(R0, 0x08000000)  returns 0x00 (0000ms, 1539ms total)
T1A10 001:943 JLINK_WriteReg(R1, 0x00000400)  returns 0x00 (0000ms, 1539ms total)
T1A10 001:943 JLINK_WriteReg(R2, 0x20000164)  returns 0x00 (0000ms, 1539ms total)
T1A10 001:943 JLINK_WriteReg(R3, 0x00000000)  returns 0x00 (0000ms, 1539ms total)
T1A10 001:943 JLINK_WriteReg(R4, 0x00000000)  returns 0x00 (0000ms, 1539ms total)
T1A10 001:943 JLINK_WriteReg(R5, 0x00000000)  returns 0x00 (0000ms, 1539ms total)
T1A10 001:943 JLINK_WriteReg(R6, 0x00000000)  returns 0x00 (0000ms, 1539ms total)
T1A10 001:943 JLINK_WriteReg(R7, 0x00000000)  returns 0x00 (0001ms, 1540ms total)
T1A10 001:944 JLINK_WriteReg(R8, 0x00000000)  returns 0x00 (0000ms, 1540ms total)
T1A10 001:944 JLINK_WriteReg(R9, 0x20000160)  returns 0x00 (0000ms, 1540ms total)
T1A10 001:944 JLINK_WriteReg(R10, 0x00000000)  returns 0x00 (0000ms, 1540ms total)
T1A10 001:944 JLINK_WriteReg(R11, 0x00000000)  returns 0x00 (0000ms, 1540ms total)
T1A10 001:944 JLINK_WriteReg(R12, 0x00000000)  returns 0x00 (0000ms, 1540ms total)
T1A10 001:944 JLINK_WriteReg(R13 (SP), 0x20001000)  returns 0x00 (0000ms, 1540ms total)
T1A10 001:944 JLINK_WriteReg(R14, 0x20000001)  returns 0x00 (0000ms, 1540ms total)
T1A10 001:944 JLINK_WriteReg(R15 (PC), 0x200000F4)  returns 0x00 (0000ms, 1540ms total)
T1A10 001:944 JLINK_WriteReg(XPSR, 0x01000000)  returns 0x00 (0000ms, 1540ms total)
T1A10 001:944 JLINK_WriteReg(MSP, 0x20001000)  returns 0x00 (0000ms, 1540ms total)
T1A10 001:944 JLINK_WriteReg(PSP, 0x20001000)  returns 0x00 (0000ms, 1540ms total)
T1A10 001:944 JLINK_WriteReg(CFBP, 0x00000000)  returns 0x00 (0000ms, 1540ms total)
T1A10 001:944 JLINK_SetBPEx(Addr = 0x20000000, Type = 0xFFFFFFF2)  returns 0x00000005 (0000ms, 1540ms total)
T1A10 001:944 JLINK_Go() -- CPU_ReadMem(4 bytes @ 0xE0001000) (0015ms, 1555ms total)
T1A10 001:959 JLINK_IsHalted()  returns FALSE (0005ms, 1560ms total)
T1A10 001:994 JLINK_IsHalted() -- CPU_ReadMem(2 bytes @ 0x20000000)  returns TRUE (0013ms, 1568ms total)
T1A10 002:007 JLINK_ReadReg(R15 (PC))  returns 0x20000000 (0000ms, 1555ms total)
T1A10 002:007 JLINK_ClrBPEx(BPHandle = 0x00000005)  returns 0x00 (0000ms, 1555ms total)
T1A10 002:007 JLINK_ReadReg(R0)  returns 0x00000000 (0000ms, 1555ms total)
T1A10 002:007 JLINK_WriteMem(0x20000164, 0x0400 Bytes, ...) - Data: 58 48 85 42 0E D0 58 48 85 42 0B D0 57 48 85 42 ... -- CPU_WriteMem(1024 bytes @ 0x20000164)  returns 0x400 (0007ms, 1562ms total)
T1A10 002:014 JLINK_WriteReg(R0, 0x08000400)  returns 0x00 (0000ms, 1562ms total)
T1A10 002:014 JLINK_WriteReg(R1, 0x00000400)  returns 0x00 (0000ms, 1562ms total)
T1A10 002:014 JLINK_WriteReg(R2, 0x20000164)  returns 0x00 (0000ms, 1562ms total)
T1A10 002:014 JLINK_WriteReg(R3, 0x00000000)  returns 0x00 (0000ms, 1562ms total)
T1A10 002:014 JLINK_WriteReg(R4, 0x00000000)  returns 0x00 (0000ms, 1562ms total)
T1A10 002:014 JLINK_WriteReg(R5, 0x00000000)  returns 0x00 (0000ms, 1562ms total)
T1A10 002:014 JLINK_WriteReg(R6, 0x00000000)  returns 0x00 (0000ms, 1562ms total)
T1A10 002:015 JLINK_WriteReg(R7, 0x00000000)  returns 0x00 (0000ms, 1563ms total)
T1A10 002:015 JLINK_WriteReg(R8, 0x00000000)  returns 0x00 (0000ms, 1563ms total)
T1A10 002:015 JLINK_WriteReg(R9, 0x20000160)  returns 0x00 (0000ms, 1563ms total)
T1A10 002:015 JLINK_WriteReg(R10, 0x00000000)  returns 0x00 (0000ms, 1563ms total)
T1A10 002:015 JLINK_WriteReg(R11, 0x00000000)  returns 0x00 (0000ms, 1563ms total)
T1A10 002:015 JLINK_WriteReg(R12, 0x00000000)  returns 0x00 (0000ms, 1563ms total)
T1A10 002:015 JLINK_WriteReg(R13 (SP), 0x20001000)  returns 0x00 (0000ms, 1563ms total)
T1A10 002:015 JLINK_WriteReg(R14, 0x20000001)  returns 0x00 (0000ms, 1563ms total)
T1A10 002:015 JLINK_WriteReg(R15 (PC), 0x200000F4)  returns 0x00 (0000ms, 1563ms total)
T1A10 002:015 JLINK_WriteReg(XPSR, 0x01000000)  returns 0x00 (0000ms, 1563ms total)
T1A10 002:015 JLINK_WriteReg(MSP, 0x20001000)  returns 0x00 (0000ms, 1563ms total)
T1A10 002:015 JLINK_WriteReg(PSP, 0x20001000)  returns 0x00 (0000ms, 1563ms total)
T1A10 002:015 JLINK_WriteReg(CFBP, 0x00000000)  returns 0x00 (0000ms, 1563ms total)
T1A10 002:015 JLINK_SetBPEx(Addr = 0x20000000, Type = 0xFFFFFFF2)  returns 0x00000006 (0000ms, 1563ms total)
T1A10 002:015 JLINK_Go() -- CPU_ReadMem(4 bytes @ 0xE0001000) (0014ms, 1577ms total)
T1A10 002:029 JLINK_IsHalted()  returns FALSE (0005ms, 1582ms total)
T1A10 002:035 JLINK_IsHalted()  returns FALSE (0004ms, 1581ms total)
T1A10 002:040 JLINK_IsHalted()  returns FALSE (0004ms, 1581ms total)
T1A10 002:045 JLINK_IsHalted()  returns FALSE (0004ms, 1581ms total)
T1A10 002:050 JLINK_IsHalted()  returns FALSE (0004ms, 1581ms total)
T1A10 002:055 JLINK_IsHalted()  returns FALSE (0004ms, 1581ms total)
T1A10 002:060 JLINK_IsHalted() -- CPU_ReadMem(2 bytes @ 0x20000000)  returns TRUE (0014ms, 1591ms total)
T1A10 002:074 JLINK_ReadReg(R15 (PC))  returns 0x20000000 (0000ms, 1577ms total)
T1A10 002:074 JLINK_ClrBPEx(BPHandle = 0x00000006)  returns 0x00 (0000ms, 1577ms total)
T1A10 002:074 JLINK_ReadReg(R0)  returns 0x00000000 (0000ms, 1577ms total)
T1A10 002:075 JLINK_WriteMem(0x20000164, 0x0400 Bytes, ...) - Data: 70 69 6F 2E 63 00 00 00 00 00 01 40 70 B5 05 46 ... -- CPU_WriteMem(1024 bytes @ 0x20000164)  returns 0x400 (0006ms, 1583ms total)
T1A10 002:082 JLINK_WriteReg(R0, 0x08000800)  returns 0x00 (0000ms, 1584ms total)
T1A10 002:082 JLINK_WriteReg(R1, 0x00000400)  returns 0x00 (0000ms, 1584ms total)
T1A10 002:082 JLINK_WriteReg(R2, 0x20000164)  returns 0x00 (0000ms, 1584ms total)
T1A10 002:082 JLINK_WriteReg(R3, 0x00000000)  returns 0x00 (0000ms, 1584ms total)
T1A10 002:082 JLINK_WriteReg(R4, 0x00000000)  returns 0x00 (0000ms, 1584ms total)
T1A10 002:082 JLINK_WriteReg(R5, 0x00000000)  returns 0x00 (0000ms, 1584ms total)
T1A10 002:082 JLINK_WriteReg(R6, 0x00000000)  returns 0x00 (0000ms, 1584ms total)
T1A10 002:082 JLINK_WriteReg(R7, 0x00000000)  returns 0x00 (0000ms, 1584ms total)
T1A10 002:082 JLINK_WriteReg(R8, 0x00000000)  returns 0x00 (0000ms, 1584ms total)
T1A10 002:082 JLINK_WriteReg(R9, 0x20000160)  returns 0x00 (0000ms, 1584ms total)
T1A10 002:082 JLINK_WriteReg(R10, 0x00000000)  returns 0x00 (0000ms, 1584ms total)
T1A10 002:082 JLINK_WriteReg(R11, 0x00000000)  returns 0x00 (0000ms, 1584ms total)
T1A10 002:082 JLINK_WriteReg(R12, 0x00000000)  returns 0x00 (0000ms, 1584ms total)
T1A10 002:082 JLINK_WriteReg(R13 (SP), 0x20001000)  returns 0x00 (0000ms, 1584ms total)
T1A10 002:082 JLINK_WriteReg(R14, 0x20000001)  returns 0x00 (0001ms, 1585ms total)
T1A10 002:083 JLINK_WriteReg(R15 (PC), 0x200000F4)  returns 0x00 (0000ms, 1585ms total)
T1A10 002:083 JLINK_WriteReg(XPSR, 0x01000000)  returns 0x00 (0000ms, 1585ms total)
T1A10 002:083 JLINK_WriteReg(MSP, 0x20001000)  returns 0x00 (0000ms, 1585ms total)
T1A10 002:083 JLINK_WriteReg(PSP, 0x20001000)  returns 0x00 (0000ms, 1585ms total)
T1A10 002:083 JLINK_WriteReg(CFBP, 0x00000000)  returns 0x00 (0000ms, 1585ms total)
T1A10 002:083 JLINK_SetBPEx(Addr = 0x20000000, Type = 0xFFFFFFF2)  returns 0x00000007 (0000ms, 1585ms total)
T1A10 002:083 JLINK_Go() -- CPU_ReadMem(4 bytes @ 0xE0001000) (0015ms, 1600ms total)
T1A10 002:098 JLINK_IsHalted()  returns FALSE (0005ms, 1605ms total)
T1A10 002:122 JLINK_IsHalted()  returns FALSE (0004ms, 1604ms total)
T1A10 002:127 JLINK_IsHalted() -- CPU_ReadMem(2 bytes @ 0x20000000)  returns TRUE (0014ms, 1614ms total)
T1A10 002:141 JLINK_ReadReg(R15 (PC))  returns 0x20000000 (0000ms, 1600ms total)
T1A10 002:141 JLINK_ClrBPEx(BPHandle = 0x00000007)  returns 0x00 (0000ms, 1600ms total)
T1A10 002:141 JLINK_ReadReg(R0)  returns 0x00000000 (0000ms, 1600ms total)
T1A10 002:141 JLINK_WriteMem(0x20000164, 0x0400 Bytes, ...) - Data: 04 B1 04 E0 40 F2 69 41 0D A0 01 F0 67 FD 0D B1 ... -- CPU_WriteMem(1024 bytes @ 0x20000164)  returns 0x400 (0007ms, 1607ms total)
T1A10 002:148 JLINK_WriteReg(R0, 0x08000C00)  returns 0x00 (0000ms, 1607ms total)
T1A10 002:148 JLINK_WriteReg(R1, 0x00000400)  returns 0x00 (0000ms, 1607ms total)
T1A10 002:148 JLINK_WriteReg(R2, 0x20000164)  returns 0x00 (0000ms, 1607ms total)
T1A10 002:148 JLINK_WriteReg(R3, 0x00000000)  returns 0x00 (0000ms, 1607ms total)
T1A10 002:149 JLINK_WriteReg(R4, 0x00000000)  returns 0x00 (0000ms, 1608ms total)
T1A10 002:149 JLINK_WriteReg(R5, 0x00000000)  returns 0x00 (0000ms, 1608ms total)
T1A10 002:149 JLINK_WriteReg(R6, 0x00000000)  returns 0x00 (0000ms, 1608ms total)
T1A10 002:149 JLINK_WriteReg(R7, 0x00000000)  returns 0x00 (0000ms, 1608ms total)
T1A10 002:149 JLINK_WriteReg(R8, 0x00000000)  returns 0x00 (0000ms, 1608ms total)
T1A10 002:149 JLINK_WriteReg(R9, 0x20000160)  returns 0x00 (0000ms, 1608ms total)
T1A10 002:149 JLINK_WriteReg(R10, 0x00000000)  returns 0x00 (0000ms, 1608ms total)
T1A10 002:149 JLINK_WriteReg(R11, 0x00000000)  returns 0x00 (0000ms, 1608ms total)
T1A10 002:149 JLINK_WriteReg(R12, 0x00000000)  returns 0x00 (0000ms, 1608ms total)
T1A10 002:149 JLINK_WriteReg(R13 (SP), 0x20001000)  returns 0x00 (0000ms, 1608ms total)
T1A10 002:149 JLINK_WriteReg(R14, 0x20000001)  returns 0x00 (0000ms, 1608ms total)
T1A10 002:149 JLINK_WriteReg(R15 (PC), 0x200000F4)  returns 0x00 (0000ms, 1608ms total)
T1A10 002:149 JLINK_WriteReg(XPSR, 0x01000000)  returns 0x00 (0001ms, 1609ms total)
T1A10 002:150 JLINK_WriteReg(MSP, 0x20001000)  returns 0x00 (0000ms, 1609ms total)
T1A10 002:150 JLINK_WriteReg(PSP, 0x20001000)  returns 0x00 (0000ms, 1609ms total)
T1A10 002:150 JLINK_WriteReg(CFBP, 0x00000000)  returns 0x00 (0000ms, 1609ms total)
T1A10 002:150 JLINK_SetBPEx(Addr = 0x20000000, Type = 0xFFFFFFF2)  returns 0x00000008 (0000ms, 1609ms total)
T1A10 002:150 JLINK_Go() -- CPU_ReadMem(4 bytes @ 0xE0001000) (0015ms, 1624ms total)
T1A10 002:165 JLINK_IsHalted()  returns FALSE (0005ms, 1629ms total)
T1A10 002:171 JLINK_IsHalted()  returns FALSE (0005ms, 1629ms total)
T1A10 002:177 JLINK_IsHalted()  returns FALSE (0004ms, 1628ms total)
T1A10 002:182 JLINK_IsHalted()  returns FALSE (0005ms, 1629ms total)
T1A10 002:200 JLINK_IsHalted() -- CPU_ReadMem(2 bytes @ 0x20000000)  returns TRUE (0042ms, 1666ms total)
T1A10 002:242 JLINK_ReadReg(R15 (PC))  returns 0x20000000 (0000ms, 1624ms total)
T1A10 002:242 JLINK_ClrBPEx(BPHandle = 0x00000008)  returns 0x00 (0000ms, 1624ms total)
T1A10 002:242 JLINK_ReadReg(R0)  returns 0x00000000 (0000ms, 1624ms total)
T1A10 002:243 JLINK_WriteMem(0x20000164, 0x0400 Bytes, ...) - Data: 4A 46 31 46 38 46 00 F0 63 F8 BD E8 F0 9F 00 00 ... -- CPU_WriteMem(1024 bytes @ 0x20000164)  returns 0x400 (0007ms, 1631ms total)
T1A10 002:250 JLINK_WriteReg(R0, 0x08001000)  returns 0x00 (0000ms, 1631ms total)
T1A10 002:250 JLINK_WriteReg(R1, 0x00000400)  returns 0x00 (0000ms, 1631ms total)
T1A10 002:250 JLINK_WriteReg(R2, 0x20000164)  returns 0x00 (0000ms, 1631ms total)
T1A10 002:250 JLINK_WriteReg(R3, 0x00000000)  returns 0x00 (0000ms, 1631ms total)
T1A10 002:250 JLINK_WriteReg(R4, 0x00000000)  returns 0x00 (0000ms, 1631ms total)
T1A10 002:250 JLINK_WriteReg(R5, 0x00000000)  returns 0x00 (0000ms, 1631ms total)
T1A10 002:250 JLINK_WriteReg(R6, 0x00000000)  returns 0x00 (0000ms, 1631ms total)
T1A10 002:250 JLINK_WriteReg(R7, 0x00000000)  returns 0x00 (0000ms, 1631ms total)
T1A10 002:250 JLINK_WriteReg(R8, 0x00000000)  returns 0x00 (0000ms, 1631ms total)
T1A10 002:250 JLINK_WriteReg(R9, 0x20000160)  returns 0x00 (0001ms, 1632ms total)
T1A10 002:251 JLINK_WriteReg(R10, 0x00000000)  returns 0x00 (0000ms, 1632ms total)
T1A10 002:251 JLINK_WriteReg(R11, 0x00000000)  returns 0x00 (0000ms, 1632ms total)
T1A10 002:251 JLINK_WriteReg(R12, 0x00000000)  returns 0x00 (0000ms, 1632ms total)
T1A10 002:251 JLINK_WriteReg(R13 (SP), 0x20001000)  returns 0x00 (0000ms, 1632ms total)
T1A10 002:251 JLINK_WriteReg(R14, 0x20000001)  returns 0x00 (0000ms, 1632ms total)
T1A10 002:251 JLINK_WriteReg(R15 (PC), 0x200000F4)  returns 0x00 (0000ms, 1632ms total)
T1A10 002:251 JLINK_WriteReg(XPSR, 0x01000000)  returns 0x00 (0000ms, 1632ms total)
T1A10 002:251 JLINK_WriteReg(MSP, 0x20001000)  returns 0x00 (0000ms, 1632ms total)
T1A10 002:251 JLINK_WriteReg(PSP, 0x20001000)  returns 0x00 (0000ms, 1632ms total)
T1A10 002:251 JLINK_WriteReg(CFBP, 0x00000000)  returns 0x00 (0000ms, 1632ms total)
T1A10 002:251 JLINK_SetBPEx(Addr = 0x20000000, Type = 0xFFFFFFF2)  returns 0x00000009 (0001ms, 1633ms total)
T1A10 002:252 JLINK_Go() -- CPU_ReadMem(4 bytes @ 0xE0001000) (0015ms, 1648ms total)
T1A10 002:267 JLINK_IsHalted()  returns FALSE (0005ms, 1653ms total)
T1A10 002:274 JLINK_IsHalted()  returns FALSE (0005ms, 1653ms total)
T1A10 002:280 JLINK_IsHalted()  returns FALSE (0004ms, 1652ms total)
T1A10 002:285 JLINK_IsHalted()  returns FALSE (0005ms, 1653ms total)
T1A10 002:291 JLINK_IsHalted()  returns FALSE (0004ms, 1652ms total)
T1A10 002:296 JLINK_IsHalted() -- CPU_ReadMem(2 bytes @ 0x20000000)  returns TRUE (0014ms, 1662ms total)
T1A10 002:310 JLINK_ReadReg(R15 (PC))  returns 0x20000000 (0000ms, 1648ms total)
T1A10 002:310 JLINK_ClrBPEx(BPHandle = 0x00000009)  returns 0x00 (0000ms, 1648ms total)
T1A10 002:310 JLINK_ReadReg(R0)  returns 0x00000000 (0000ms, 1648ms total)
T1A10 002:310 JLINK_WriteMem(0x20000164, 0x0400 Bytes, ...) - Data: A0 89 08 28 11 D0 A0 89 10 28 0E D0 A0 89 18 28 ... -- CPU_WriteMem(1024 bytes @ 0x20000164)  returns 0x400 (0007ms, 1655ms total)
T1A10 002:317 JLINK_WriteReg(R0, 0x08001400)  returns 0x00 (0004ms, 1659ms total)
T1A10 002:321 JLINK_WriteReg(R1, 0x00000400)  returns 0x00 (0000ms, 1659ms total)
T1A10 002:321 JLINK_WriteReg(R2, 0x20000164)  returns 0x00 (0000ms, 1659ms total)
T1A10 002:321 JLINK_WriteReg(R3, 0x00000000)  returns 0x00 (0000ms, 1659ms total)
T1A10 002:321 JLINK_WriteReg(R4, 0x00000000)  returns 0x00 (0001ms, 1660ms total)
T1A10 002:322 JLINK_WriteReg(R5, 0x00000000)  returns 0x00 (0000ms, 1660ms total)
T1A10 002:322 JLINK_WriteReg(R6, 0x00000000)  returns 0x00 (0000ms, 1660ms total)
T1A10 002:322 JLINK_WriteReg(R7, 0x00000000)  returns 0x00 (0000ms, 1660ms total)
T1A10 002:322 JLINK_WriteReg(R8, 0x00000000)  returns 0x00 (0000ms, 1660ms total)
T1A10 002:322 JLINK_WriteReg(R9, 0x20000160)  returns 0x00 (0000ms, 1660ms total)
T1A10 002:322 JLINK_WriteReg(R10, 0x00000000)  returns 0x00 (0000ms, 1660ms total)
T1A10 002:322 JLINK_WriteReg(R11, 0x00000000)  returns 0x00 (0000ms, 1660ms total)
T1A10 002:322 JLINK_WriteReg(R12, 0x00000000)  returns 0x00 (0000ms, 1660ms total)
T1A10 002:322 JLINK_WriteReg(R13 (SP), 0x20001000)  returns 0x00 (0000ms, 1660ms total)
T1A10 002:322 JLINK_WriteReg(R14, 0x20000001)  returns 0x00 (0000ms, 1660ms total)
T1A10 002:322 JLINK_WriteReg(R15 (PC), 0x200000F4)  returns 0x00 (0000ms, 1660ms total)
T1A10 002:322 JLINK_WriteReg(XPSR, 0x01000000)  returns 0x00 (0000ms, 1660ms total)
T1A10 002:322 JLINK_WriteReg(MSP, 0x20001000)  returns 0x00 (0001ms, 1661ms total)
T1A10 002:323 JLINK_WriteReg(PSP, 0x20001000)  returns 0x00 (0000ms, 1661ms total)
T1A10 002:323 JLINK_WriteReg(CFBP, 0x00000000)  returns 0x00 (0000ms, 1661ms total)
T1A10 002:323 JLINK_SetBPEx(Addr = 0x20000000, Type = 0xFFFFFFF2)  returns 0x0000000A (0000ms, 1661ms total)
T1A10 002:323 JLINK_Go() -- CPU_ReadMem(4 bytes @ 0xE0001000) (0015ms, 1676ms total)
T1A10 002:338 JLINK_IsHalted()  returns FALSE (0004ms, 1680ms total)
T1A10 002:357 JLINK_IsHalted()  returns FALSE (0005ms, 1681ms total)
T1A10 002:363 JLINK_IsHalted()  returns FALSE (0005ms, 1681ms total)
T1A10 002:369 JLINK_IsHalted() -- CPU_ReadMem(2 bytes @ 0x20000000)  returns TRUE (0013ms, 1689ms total)
T1A10 002:382 JLINK_ReadReg(R15 (PC))  returns 0x20000000 (0000ms, 1676ms total)
T1A10 002:382 JLINK_ClrBPEx(BPHandle = 0x0000000A)  returns 0x00 (0000ms, 1676ms total)
T1A10 002:382 JLINK_ReadReg(R0)  returns 0x00000000 (0000ms, 1676ms total)
T1A10 002:382 JLINK_WriteMem(0x20000164, 0x0400 Bytes, ...) - Data: 00 F0 6C FF 0D B1 01 2D 00 D1 04 E0 40 F2 63 11 ... -- CPU_WriteMem(1024 bytes @ 0x20000164)  returns 0x400 (0007ms, 1683ms total)
T1A10 002:389 JLINK_WriteReg(R0, 0x08001800)  returns 0x00 (0000ms, 1683ms total)
T1A10 002:389 JLINK_WriteReg(R1, 0x00000400)  returns 0x00 (0000ms, 1683ms total)
T1A10 002:389 JLINK_WriteReg(R2, 0x20000164)  returns 0x00 (0000ms, 1683ms total)
T1A10 002:389 JLINK_WriteReg(R3, 0x00000000)  returns 0x00 (0001ms, 1684ms total)
T1A10 002:390 JLINK_WriteReg(R4, 0x00000000)  returns 0x00 (0000ms, 1684ms total)
T1A10 002:390 JLINK_WriteReg(R5, 0x00000000)  returns 0x00 (0000ms, 1684ms total)
T1A10 002:390 JLINK_WriteReg(R6, 0x00000000)  returns 0x00 (0000ms, 1684ms total)
T1A10 002:390 JLINK_WriteReg(R7, 0x00000000)  returns 0x00 (0000ms, 1684ms total)
T1A10 002:390 JLINK_WriteReg(R8, 0x00000000)  returns 0x00 (0000ms, 1684ms total)
T1A10 002:390 JLINK_WriteReg(R9, 0x20000160)  returns 0x00 (0000ms, 1684ms total)
T1A10 002:390 JLINK_WriteReg(R10, 0x00000000)  returns 0x00 (0000ms, 1684ms total)
T1A10 002:390 JLINK_WriteReg(R11, 0x00000000)  returns 0x00 (0000ms, 1684ms total)
T1A10 002:390 JLINK_WriteReg(R12, 0x00000000)  returns 0x00 (0000ms, 1684ms total)
T1A10 002:390 JLINK_WriteReg(R13 (SP), 0x20001000)  returns 0x00 (0000ms, 1684ms total)
T1A10 002:390 JLINK_WriteReg(R14, 0x20000001)  returns 0x00 (0000ms, 1684ms total)
T1A10 002:390 JLINK_WriteReg(R15 (PC), 0x200000F4)  returns 0x00 (0000ms, 1684ms total)
T1A10 002:390 JLINK_WriteReg(XPSR, 0x01000000)  returns 0x00 (0000ms, 1684ms total)
T1A10 002:390 JLINK_WriteReg(MSP, 0x20001000)  returns 0x00 (0000ms, 1684ms total)
T1A10 002:390 JLINK_WriteReg(PSP, 0x20001000)  returns 0x00 (0001ms, 1685ms total)
T1A10 002:391 JLINK_WriteReg(CFBP, 0x00000000)  returns 0x00 (0000ms, 1685ms total)
T1A10 002:391 JLINK_SetBPEx(Addr = 0x20000000, Type = 0xFFFFFFF2)  returns 0x0000000B (0000ms, 1685ms total)
T1A10 002:391 JLINK_Go() -- CPU_ReadMem(4 bytes @ 0xE0001000) (0014ms, 1699ms total)
T1A10 002:405 JLINK_IsHalted()  returns FALSE (0005ms, 1704ms total)
T1A10 002:420 JLINK_IsHalted()  returns FALSE (0004ms, 1703ms total)
T1A10 002:426 JLINK_IsHalted()  returns FALSE (0005ms, 1704ms total)
T1A10 002:432 JLINK_IsHalted() -- CPU_ReadMem(2 bytes @ 0x20000000)  returns TRUE (0014ms, 1713ms total)
T1A10 002:446 JLINK_ReadReg(R15 (PC))  returns 0x20000000 (0000ms, 1699ms total)
T1A10 002:446 JLINK_ClrBPEx(BPHandle = 0x0000000B)  returns 0x00 (0000ms, 1699ms total)
T1A10 002:446 JLINK_ReadReg(R0)  returns 0x00000000 (0000ms, 1699ms total)
T1A10 002:446 JLINK_WriteMem(0x20000164, 0x0400 Bytes, ...) - Data: 2E 63 00 00 2D E9 F0 47 86 B0 05 46 0C 46 00 26 ... -- CPU_WriteMem(1024 bytes @ 0x20000164)  returns 0x400 (0007ms, 1706ms total)
T1A10 002:453 JLINK_WriteReg(R0, 0x08001C00)  returns 0x00 (0000ms, 1706ms total)
T1A10 002:453 JLINK_WriteReg(R1, 0x00000400)  returns 0x00 (0000ms, 1706ms total)
T1A10 002:453 JLINK_WriteReg(R2, 0x20000164)  returns 0x00 (0000ms, 1706ms total)
T1A10 002:453 JLINK_WriteReg(R3, 0x00000000)  returns 0x00 (0000ms, 1706ms total)
T1A10 002:453 JLINK_WriteReg(R4, 0x00000000)  returns 0x00 (0000ms, 1706ms total)
T1A10 002:453 JLINK_WriteReg(R5, 0x00000000)  returns 0x00 (0000ms, 1706ms total)
T1A10 002:453 JLINK_WriteReg(R6, 0x00000000)  returns 0x00 (0000ms, 1706ms total)
T1A10 002:453 JLINK_WriteReg(R7, 0x00000000)  returns 0x00 (0000ms, 1706ms total)
T1A10 002:453 JLINK_WriteReg(R8, 0x00000000)  returns 0x00 (0001ms, 1707ms total)
T1A10 002:454 JLINK_WriteReg(R9, 0x20000160)  returns 0x00 (0000ms, 1707ms total)
T1A10 002:454 JLINK_WriteReg(R10, 0x00000000)  returns 0x00 (0000ms, 1707ms total)
T1A10 002:454 JLINK_WriteReg(R11, 0x00000000)  returns 0x00 (0000ms, 1707ms total)
T1A10 002:454 JLINK_WriteReg(R12, 0x00000000)  returns 0x00 (0000ms, 1707ms total)
T1A10 002:454 JLINK_WriteReg(R13 (SP), 0x20001000)  returns 0x00 (0000ms, 1707ms total)
T1A10 002:454 JLINK_WriteReg(R14, 0x20000001)  returns 0x00 (0000ms, 1707ms total)
T1A10 002:454 JLINK_WriteReg(R15 (PC), 0x200000F4)  returns 0x00 (0000ms, 1707ms total)
T1A10 002:454 JLINK_WriteReg(XPSR, 0x01000000)  returns 0x00 (0000ms, 1707ms total)
T1A10 002:454 JLINK_WriteReg(MSP, 0x20001000)  returns 0x00 (0000ms, 1707ms total)
T1A10 002:454 JLINK_WriteReg(PSP, 0x20001000)  returns 0x00 (0000ms, 1707ms total)
T1A10 002:454 JLINK_WriteReg(CFBP, 0x00000000)  returns 0x00 (0000ms, 1707ms total)
T1A10 002:454 JLINK_SetBPEx(Addr = 0x20000000, Type = 0xFFFFFFF2)  returns 0x0000000C (0000ms, 1707ms total)
T1A10 002:454 JLINK_Go() -- CPU_ReadMem(4 bytes @ 0xE0001000) (0015ms, 1722ms total)
T1A10 002:469 JLINK_IsHalted()  returns FALSE (0005ms, 1727ms total)
T1A10 002:489 JLINK_IsHalted()  returns FALSE (0004ms, 1726ms total)
T1A10 002:494 JLINK_IsHalted()  returns FALSE (0004ms, 1726ms total)
T1A10 002:499 JLINK_IsHalted() -- CPU_ReadMem(2 bytes @ 0x20000000)  returns TRUE (0014ms, 1736ms total)
T1A10 002:513 JLINK_ReadReg(R15 (PC))  returns 0x20000000 (0000ms, 1722ms total)
T1A10 002:513 JLINK_ClrBPEx(BPHandle = 0x0000000C)  returns 0x00 (0000ms, 1722ms total)
T1A10 002:513 JLINK_ReadReg(R0)  returns 0x00000000 (0000ms, 1722ms total)
T1A10 002:513 JLINK_WriteMem(0x20000164, 0x0400 Bytes, ...) - Data: A5 71 65 71 C4 F8 14 80 C4 F8 18 80 00 20 20 60 ... -- CPU_WriteMem(1024 bytes @ 0x20000164)  returns 0x400 (0007ms, 1729ms total)
T1A10 002:520 JLINK_WriteReg(R0, 0x08002000)  returns 0x00 (0000ms, 1729ms total)
T1A10 002:520 JLINK_WriteReg(R1, 0x00000400)  returns 0x00 (0001ms, 1730ms total)
T1A10 002:521 JLINK_WriteReg(R2, 0x20000164)  returns 0x00 (0000ms, 1730ms total)
T1A10 002:521 JLINK_WriteReg(R3, 0x00000000)  returns 0x00 (0000ms, 1730ms total)
T1A10 002:521 JLINK_WriteReg(R4, 0x00000000)  returns 0x00 (0000ms, 1730ms total)
T1A10 002:521 JLINK_WriteReg(R5, 0x00000000)  returns 0x00 (0000ms, 1730ms total)
T1A10 002:521 JLINK_WriteReg(R6, 0x00000000)  returns 0x00 (0000ms, 1730ms total)
T1A10 002:521 JLINK_WriteReg(R7, 0x00000000)  returns 0x00 (0000ms, 1730ms total)
T1A10 002:521 JLINK_WriteReg(R8, 0x00000000)  returns 0x00 (0000ms, 1730ms total)
T1A10 002:521 JLINK_WriteReg(R9, 0x20000160)  returns 0x00 (0000ms, 1730ms total)
T1A10 002:521 JLINK_WriteReg(R10, 0x00000000)  returns 0x00 (0000ms, 1730ms total)
T1A10 002:521 JLINK_WriteReg(R11, 0x00000000)  returns 0x00 (0000ms, 1730ms total)
T1A10 002:521 JLINK_WriteReg(R12, 0x00000000)  returns 0x00 (0000ms, 1730ms total)
T1A10 002:521 JLINK_WriteReg(R13 (SP), 0x20001000)  returns 0x00 (0000ms, 1730ms total)
T1A10 002:521 JLINK_WriteReg(R14, 0x20000001)  returns 0x00 (0000ms, 1730ms total)
T1A10 002:521 JLINK_WriteReg(R15 (PC), 0x200000F4)  returns 0x00 (0000ms, 1730ms total)
T1A10 002:521 JLINK_WriteReg(XPSR, 0x01000000)  returns 0x00 (0001ms, 1731ms total)
T1A10 002:522 JLINK_WriteReg(MSP, 0x20001000)  returns 0x00 (0000ms, 1731ms total)
T1A10 002:522 JLINK_WriteReg(PSP, 0x20001000)  returns 0x00 (0000ms, 1731ms total)
T1A10 002:522 JLINK_WriteReg(CFBP, 0x00000000)  returns 0x00 (0000ms, 1731ms total)
T1A10 002:522 JLINK_SetBPEx(Addr = 0x20000000, Type = 0xFFFFFFF2)  returns 0x0000000D (0000ms, 1731ms total)
T1A10 002:522 JLINK_Go() -- CPU_ReadMem(4 bytes @ 0xE0001000) (0014ms, 1745ms total)
T1A10 002:536 JLINK_IsHalted()  returns FALSE (0004ms, 1749ms total)
T1A10 002:554 JLINK_IsHalted()  returns FALSE (0004ms, 1749ms total)
T1A10 002:559 JLINK_IsHalted()  returns FALSE (0005ms, 1750ms total)
T1A10 002:567 JLINK_IsHalted() -- CPU_ReadMem(2 bytes @ 0x20000000)  returns TRUE (0014ms, 1759ms total)
T1A10 002:581 JLINK_ReadReg(R15 (PC))  returns 0x20000000 (0000ms, 1745ms total)
T1A10 002:581 JLINK_ClrBPEx(BPHandle = 0x0000000D)  returns 0x00 (0000ms, 1745ms total)
T1A10 002:581 JLINK_ReadReg(R0)  returns 0x00000000 (0000ms, 1745ms total)
T1A10 002:582 JLINK_WriteMem(0x20000164, 0x0400 Bytes, ...) - Data: 4F F0 FF 31 0A 48 00 68 02 F0 4E FD 07 49 88 78 ... -- CPU_WriteMem(1024 bytes @ 0x20000164)  returns 0x400 (0006ms, 1751ms total)
T1A10 002:588 JLINK_WriteReg(R0, 0x08002400)  returns 0x00 (0001ms, 1752ms total)
T1A10 002:589 JLINK_WriteReg(R1, 0x00000400)  returns 0x00 (0000ms, 1752ms total)
T1A10 002:589 JLINK_WriteReg(R2, 0x20000164)  returns 0x00 (0000ms, 1752ms total)
T1A10 002:589 JLINK_WriteReg(R3, 0x00000000)  returns 0x00 (0000ms, 1752ms total)
T1A10 002:589 JLINK_WriteReg(R4, 0x00000000)  returns 0x00 (0000ms, 1752ms total)
T1A10 002:589 JLINK_WriteReg(R5, 0x00000000)  returns 0x00 (0000ms, 1752ms total)
T1A10 002:589 JLINK_WriteReg(R6, 0x00000000)  returns 0x00 (0000ms, 1752ms total)
T1A10 002:589 JLINK_WriteReg(R7, 0x00000000)  returns 0x00 (0000ms, 1752ms total)
T1A10 002:589 JLINK_WriteReg(R8, 0x00000000)  returns 0x00 (0000ms, 1752ms total)
T1A10 002:589 JLINK_WriteReg(R9, 0x20000160)  returns 0x00 (0000ms, 1752ms total)
T1A10 002:589 JLINK_WriteReg(R10, 0x00000000)  returns 0x00 (0000ms, 1752ms total)
T1A10 002:589 JLINK_WriteReg(R11, 0x00000000)  returns 0x00 (0000ms, 1752ms total)
T1A10 002:589 JLINK_WriteReg(R12, 0x00000000)  returns 0x00 (0000ms, 1752ms total)
T1A10 002:589 JLINK_WriteReg(R13 (SP), 0x20001000)  returns 0x00 (0000ms, 1752ms total)
T1A10 002:589 JLINK_WriteReg(R14, 0x20000001)  returns 0x00 (0000ms, 1752ms total)
T1A10 002:589 JLINK_WriteReg(R15 (PC), 0x200000F4)  returns 0x00 (0001ms, 1753ms total)
T1A10 002:590 JLINK_WriteReg(XPSR, 0x01000000)  returns 0x00 (0000ms, 1753ms total)
T1A10 002:590 JLINK_WriteReg(MSP, 0x20001000)  returns 0x00 (0000ms, 1753ms total)
T1A10 002:590 JLINK_WriteReg(PSP, 0x20001000)  returns 0x00 (0000ms, 1753ms total)
T1A10 002:590 JLINK_WriteReg(CFBP, 0x00000000)  returns 0x00 (0000ms, 1753ms total)
T1A10 002:590 JLINK_SetBPEx(Addr = 0x20000000, Type = 0xFFFFFFF2)  returns 0x0000000E (0000ms, 1753ms total)
T1A10 002:590 JLINK_Go() -- CPU_ReadMem(4 bytes @ 0xE0001000) (0015ms, 1768ms total)
T1A10 002:605 JLINK_IsHalted()  returns FALSE (0005ms, 1773ms total)
T1A10 002:614 JLINK_IsHalted()  returns FALSE (0004ms, 1772ms total)
T1A10 002:619 JLINK_IsHalted()  returns FALSE (0004ms, 1772ms total)
T1A10 002:633 JLINK_IsHalted() -- CPU_ReadMem(2 bytes @ 0x20000000)  returns TRUE (0013ms, 1781ms total)
T1A10 002:646 JLINK_ReadReg(R15 (PC))  returns 0x20000000 (0000ms, 1768ms total)
T1A10 002:646 JLINK_ClrBPEx(BPHandle = 0x0000000E)  returns 0x00 (0000ms, 1768ms total)
T1A10 002:646 JLINK_ReadReg(R0)  returns 0x00000000 (0000ms, 1768ms total)
T1A10 002:647 JLINK_WriteMem(0x20000164, 0x0400 Bytes, ...) - Data: 05 46 89 46 4F F0 00 0A 05 F0 98 F8 00 B1 3E E0 ... -- CPU_WriteMem(1024 bytes @ 0x20000164)  returns 0x400 (0006ms, 1774ms total)
T1A10 002:654 JLINK_WriteReg(R0, 0x08002800)  returns 0x00 (0000ms, 1775ms total)
T1A10 002:654 JLINK_WriteReg(R1, 0x00000400)  returns 0x00 (0000ms, 1775ms total)
T1A10 002:654 JLINK_WriteReg(R2, 0x20000164)  returns 0x00 (0000ms, 1775ms total)
T1A10 002:654 JLINK_WriteReg(R3, 0x00000000)  returns 0x00 (0000ms, 1775ms total)
T1A10 002:654 JLINK_WriteReg(R4, 0x00000000)  returns 0x00 (0000ms, 1775ms total)
T1A10 002:654 JLINK_WriteReg(R5, 0x00000000)  returns 0x00 (0000ms, 1775ms total)
T1A10 002:654 JLINK_WriteReg(R6, 0x00000000)  returns 0x00 (0000ms, 1775ms total)
T1A10 002:654 JLINK_WriteReg(R7, 0x00000000)  returns 0x00 (0000ms, 1775ms total)
T1A10 002:654 JLINK_WriteReg(R8, 0x00000000)  returns 0x00 (0000ms, 1775ms total)
T1A10 002:654 JLINK_WriteReg(R9, 0x20000160)  returns 0x00 (0000ms, 1775ms total)
T1A10 002:654 JLINK_WriteReg(R10, 0x00000000)  returns 0x00 (0000ms, 1775ms total)
T1A10 002:654 JLINK_WriteReg(R11, 0x00000000)  returns 0x00 (0000ms, 1775ms total)
T1A10 002:654 JLINK_WriteReg(R12, 0x00000000)  returns 0x00 (0000ms, 1775ms total)
T1A10 002:654 JLINK_WriteReg(R13 (SP), 0x20001000)  returns 0x00 (0000ms, 1775ms total)
T1A10 002:654 JLINK_WriteReg(R14, 0x20000001)  returns 0x00 (0001ms, 1776ms total)
T1A10 002:655 JLINK_WriteReg(R15 (PC), 0x200000F4)  returns 0x00 (0000ms, 1776ms total)
T1A10 002:655 JLINK_WriteReg(XPSR, 0x01000000)  returns 0x00 (0000ms, 1776ms total)
T1A10 002:655 JLINK_WriteReg(MSP, 0x20001000)  returns 0x00 (0000ms, 1776ms total)
T1A10 002:655 JLINK_WriteReg(PSP, 0x20001000)  returns 0x00 (0000ms, 1776ms total)
T1A10 002:655 JLINK_WriteReg(CFBP, 0x00000000)  returns 0x00 (0000ms, 1776ms total)
T1A10 002:655 JLINK_SetBPEx(Addr = 0x20000000, Type = 0xFFFFFFF2)  returns 0x0000000F (0000ms, 1776ms total)
T1A10 002:655 JLINK_Go() -- CPU_ReadMem(4 bytes @ 0xE0001000) (0015ms, 1791ms total)
T1A10 002:670 JLINK_IsHalted()  returns FALSE (0005ms, 1796ms total)
T1A10 002:677 JLINK_IsHalted()  returns FALSE (0004ms, 1795ms total)
T1A10 002:682 JLINK_IsHalted()  returns FALSE (0004ms, 1795ms total)
T1A10 002:687 JLINK_IsHalted()  returns FALSE (0004ms, 1795ms total)
T1A10 002:692 JLINK_IsHalted()  returns FALSE (0004ms, 1795ms total)
T1A10 002:698 JLINK_IsHalted() -- CPU_ReadMem(2 bytes @ 0x20000000)  returns TRUE (0014ms, 1805ms total)
T1A10 002:712 JLINK_ReadReg(R15 (PC))  returns 0x20000000 (0000ms, 1791ms total)
T1A10 002:712 JLINK_ClrBPEx(BPHandle = 0x0000000F)  returns 0x00 (0000ms, 1791ms total)
T1A10 002:712 JLINK_ReadReg(R0)  returns 0x00000000 (0000ms, 1791ms total)
T1A10 002:713 JLINK_WriteMem(0x20000164, 0x0400 Bytes, ...) - Data: 82 46 0F 46 4F F0 00 09 38 88 05 28 02 D0 04 F0 ... -- CPU_WriteMem(1024 bytes @ 0x20000164)  returns 0x400 (0007ms, 1798ms total)
T1A10 002:720 JLINK_WriteReg(R0, 0x08002C00)  returns 0x00 (0000ms, 1798ms total)
T1A10 002:720 JLINK_WriteReg(R1, 0x00000400)  returns 0x00 (0000ms, 1798ms total)
T1A10 002:720 JLINK_WriteReg(R2, 0x20000164)  returns 0x00 (0000ms, 1798ms total)
T1A10 002:720 JLINK_WriteReg(R3, 0x00000000)  returns 0x00 (0000ms, 1798ms total)
T1A10 002:720 JLINK_WriteReg(R4, 0x00000000)  returns 0x00 (0000ms, 1798ms total)
T1A10 002:720 JLINK_WriteReg(R5, 0x00000000)  returns 0x00 (0000ms, 1798ms total)
T1A10 002:720 JLINK_WriteReg(R6, 0x00000000)  returns 0x00 (0000ms, 1798ms total)
T1A10 002:720 JLINK_WriteReg(R7, 0x00000000)  returns 0x00 (0000ms, 1798ms total)
T1A10 002:720 JLINK_WriteReg(R8, 0x00000000)  returns 0x00 (0000ms, 1798ms total)
T1A10 002:720 JLINK_WriteReg(R9, 0x20000160)  returns 0x00 (0000ms, 1798ms total)
T1A10 002:720 JLINK_WriteReg(R10, 0x00000000)  returns 0x00 (0000ms, 1798ms total)
T1A10 002:720 JLINK_WriteReg(R11, 0x00000000)  returns 0x00 (0000ms, 1798ms total)
T1A10 002:720 JLINK_WriteReg(R12, 0x00000000)  returns 0x00 (0000ms, 1798ms total)
T1A10 002:720 JLINK_WriteReg(R13 (SP), 0x20001000)  returns 0x00 (0000ms, 1798ms total)
T1A10 002:720 JLINK_WriteReg(R14, 0x20000001)  returns 0x00 (0001ms, 1799ms total)
T1A10 002:721 JLINK_WriteReg(R15 (PC), 0x200000F4)  returns 0x00 (0000ms, 1799ms total)
T1A10 002:721 JLINK_WriteReg(XPSR, 0x01000000)  returns 0x00 (0000ms, 1799ms total)
